hour, t(sec), |V|1 (volts), |V|2 (volts), |V|3 (volts), |V|4 (volts), |I|1 (amps), |I|2 (amps), |I|3 (amps), |I|4 (amps)
0, 0.00000, 5110.5, 5347.17, 5093.51, 0, 199.653, 208.905, 199.003, 10.4365
0, 0.00000, 5150.22, 5388.07, 5133.66, 0, 199.013, 208.206, 198.371, 10.3848
0, 0.00000, 5190.7, 5429.73, 5174.51, 0, 198.372, 207.509, 197.751, 10.3595
0, 0.00000, 5231.72, 5471.95, 5215.93, 0, 197.72, 206.801, 197.121, 10.3335
0, 0.00000, 5273.27, 5514.71, 5257.9, 0, 197.056, 206.081, 196.48, 10.3071
0, 0.00000, 5315.47, 5558.13, 5300.54, 0, 196.38, 205.347, 195.826, 10.28
0, 0.00000, 5358.31, 5602.2, 5343.84, 0, 195.69, 204.599, 195.159, 10.2524
0, 0.00000, 5401.76, 5646.89, 5387.77, 0, 194.988, 203.838, 194.481, 10.2242
0, 0.00000, 5445.93, 5692.31, 5432.46, 0, 194.27, 203.062, 193.788, 10.1954
0, 0.00000, 5490.79, 5738.45, 5477.87, 0, 193.539, 202.27, 193.081, 10.1658
0, 0.00000, 5536.2, 5785.14, 5523.85, 0, 192.795, 201.466, 192.363, 10.1358
0, 0.00000, 5582.4, 5832.63, 5570.65, 0, 192.035, 200.645, 191.629, 10.105
0, 0.00000, 5629.35, 5880.88, 5618.23, 0, 191.259, 199.807, 190.879, 10.0735
0, 0.00000, 5676.89, 5929.74, 5666.44, 0, 190.47, 198.955, 190.117, 10.0413
0, 0.00000, 5725.26, 5979.44, 5715.51, 0, 189.663, 198.085, 189.338, 10.0084
0, 0.00000, 5774.29, 6029.82, 5765.28, 0, 188.841, 197.2, 188.544, 9.97471
0, 0.00000, 5824.21, 6081.11, 5815.98, 0, 188, 196.294, 187.732, 9.94021
0, 0.00000, 5874.86, 6133.13, 5867.44, 0, 187.143, 195.372, 186.905, 9.90493
0, 0.00000, 5926.19, 6185.85, 5919.64, 0, 186.27, 194.433, 186.061, 9.8689
0, 0.00000, 5978.43, 6239.49, 5972.78, 0, 185.377, 193.473, 185.199, 9.83195
0, 0.00000, 6031.52, 6294.01, 6026.82, 0, 184.464, 192.494, 184.318, 9.7941
0, 0.00000, 6085.55, 6349.47, 6081.84, 0, 183.531, 191.492, 183.417, 9.75528
0, 0.00000, 6140.34, 6405.72, 6137.69, 0, 182.579, 190.472, 182.498, 9.71557
0, 0.00000, 6195.97, 6462.83, 6194.42, 0, 181.608, 189.431, 181.56, 9.67492
0, 0.00000, 6264.51, 8339.79, 6110.23, 0, 180.974, 161.272, 176.513, 24.9521
0, 0.00000, 6320.53, 8399.1, 6167.69, 0, 179.888, 160.039, 175.545, 25.0479
0, 0.00000, 6377.34, 8459.15, 6226.17, 0, 178.801, 158.782, 174.569, 25.1007
0, 0.00000, 6435.07, 8519.81, 6285.8, 0, 177.685, 157.497, 173.571, 25.1515
0, 0.00000, 8243.59, 8327.31, 6347.17, 0, 149.821, 151.64, 172.596, 29.9905
0, 0.00000, 8302.71, 8387.54, 6406.8, 0, 148.772, 150.287, 171.47, 29.504
0, 0.00000, 8361.98, 8448.19, 6467.41, 0, 147.462, 148.978, 170.351, 29.5477
0, 0.00000, 8193.75, 8503.1, 8266.19, 0, 142.165, 147.546, 143.407, 8.06714
0, 0.00000, 8252.68, 8563.06, 8328.36, 0, 140.846, 146.143, 142.136, 7.99608
0, 0.00000, 8312.17, 8623.88, 8391.33, 0, 139.499, 144.729, 140.825, 7.93652
0, 0.00000, 8372.17, 8685.23, 8454.92, 0, 138.131, 143.295, 139.493, 7.87584
0, 0.00000, 8432.94, 8747.38, 8519.41, 0, 136.735, 141.833, 138.135, 7.8136
0, 0.00000, 8494.19, 8810.05, 8584.5, 0, 135.319, 140.35, 136.756, 7.75003
0, 0.00000, 8556.17, 8873.46, 8650.46, 0, 133.877, 138.841, 135.35, 7.68488
0, 0.00000, 8618.83, 8937.59, 8717.22, 0, 132.408, 137.304, 133.918, 7.61812
0, 0.00000, 8682.12, 9002.38, 8784.77, 0, 130.914, 135.742, 132.459, 7.54978
0, 0.00000, 8746.01, 9067.8, 8853.04, 0, 129.395, 134.155, 130.976, 7.47986
0, 0.00000, 8810.58, 9133.94, 8922.15, 0, 127.848, 132.539, 129.465, 7.40821
0, 0.00000, 8875.84, 9200.8, 8992.1, 0, 126.273, 130.895, 127.925, 7.33479
0, 0.00000, 8941.71, 9268.3, 9062.81, 0, 124.671, 129.224, 126.358, 7.25963
0, 0.00000, 9008.23, 9336.51, 9134.34, 0, 123.041, 127.524, 124.761, 7.18263
0, 0.00000, 9075.38, 9405.38, 9206.67, 0, 121.382, 125.795, 123.136, 7.10377
0, 0.00000, 9143.25, 9475.01, 9279.89, 0, 119.692, 124.034, 121.479, 7.02289
0, 0.00000, 9211.76, 9545.33, 9353.93, 0, 117.972, 122.243, 119.791, 6.94002
0, 0.00000, 9280.86, 9616.28, 9428.73, 0, 116.223, 120.423, 118.073, 6.85518
0, 0.00000, 9350.67, 9688, 9504.45, 0, 114.441, 118.569, 116.322, 6.76814
0, 0.00000, 9421.1, 9760.39, 9580.97, 0, 112.628, 116.683, 114.538, 6.67897
0, 0.00000, 9492.18, 9833.48, 9658.35, 0, 110.782, 114.764, 112.72, 6.58754
0, 0.00000, 9563.93, 9907.3, 9736.61, 0, 108.901, 112.811, 110.867, 6.49377
0, 0.00000, 9636.23, 9981.73, 9815.63, 0, 106.99, 110.825, 108.98, 6.39775
0, 0.00000, 9709.2, 10056.9, 9895.54, 0, 105.042, 108.804, 107.057, 6.29923
0, 0.00000, 9782.82, 10132.8, 9976.33, 0, 103.059, 106.746, 105.097, 6.19817
0, 0.00000, 9856.99, 10209.3, 10057.9, 0, 101.042, 104.653, 103.101, 6.09463
0, 0.00000, 9931.8, 10286.5, 10140.3, 0, 98.9875, 102.522, 101.065, 5.9884
0, 0.00000, 10007.2, 10364.4, 10223.6, 0, 96.897, 100.355, 98.9918, 5.87924
0, 0.00000, 10083.2, 10443.2, 10307.6, 0, 94.7687, 98.1523, 96.8775, 5.76573
0, 0.00000, 10159.7, 10522.7, 10392.4, 0, 92.6034, 95.9119, 94.7241, 5.64951
0, 0.00000, 10236.8, 10602.9, 10478.1, 0, 90.3988, 93.6314, 92.5295, 5.53118
0, 0.00000, 10314.5, 10683.7, 10564.7, 0, 88.1544, 91.3101, 90.2928, 5.41017
0, 0.00000, 10392.6, 10765.1, 10652, 0, 85.8711, 88.9491, 88.0145, 5.28617
0, 0.00000, 10471.2, 10847.2, 10740.1, 0, 83.5466, 86.5459, 85.692, 5.15895
0, 0.00000, 10550.3, 10929.7, 10829, 0, 81.1819, 84.1014, 83.3262, 5.02852
0, 0.00000, 10629.9, 11012.9, 10918.6, 0, 78.7748, 81.6132, 80.9145, 4.8947
0, 0.00000, 10709.9, 11096.7, 11009, 0, 76.326, 79.0822, 78.4575, 4.75749
0, 0.00000, 10790.4, 11180.9, 11100.1, 0, 73.8354, 76.508, 75.9545, 4.61628
0, 0.00000, 10871.3, 11265.8, 11191.8, 0, 71.3012, 73.8889, 73.4035, 4.47099
0, 0.00000, 10952.5, 11351.1, 11284.1, 0, 68.7262, 71.2279, 70.8075, 4.32227
0, 0.00000, 11035.2, 11436.6, 11377.2, 0, 66.111, 68.5162, 68.1605, 4.16352
0, 0.00000, 11119.8, 11522.3, 11471.2, 0, 63.454, 65.7523, 65.4607, 3.99412
0, 0.00000, 11205, 11608.1, 11565.7, 0, 60.7578, 62.9456, 62.7153, 3.81942
0, 0.00000, 11290.3, 11694.2, 11660.6, 0, 58.0162, 60.0931, 59.9203, 3.64184
0, 0.00000, 11376, 11780.5, 11756, 0, 55.2271, 57.1925, 57.0734, 3.46138
0, 0.00000, 11462.1, 11867.2, 11852, 0, 52.389, 54.242, 54.1724, 3.27778
0, 0.00000, 11548.3, 11953.9, 11948.2, 0, 49.5056, 51.246, 51.2215, 3.09165
0, 0.00000, 11634.7, 12040.9, 12044.9, 0, 46.5719, 48.1994, 48.2154, 2.90277
0, 0.00000, 11721.2, 12128.1, 12142, 0, 43.5879, 45.1021, 45.1539, 2.71118
0, 0.00000, 11807.5, 12215.3, 12240, 0, 40.557, 41.9588, 42.0443, 2.52166
0, 0.00000, 11893.5, 12311.5, 12341.3, 0, 37.4765, 38.7932, 38.8879, 2.33146
0, 0.00000, 11981.9, 12413.9, 12444.2, 0, 34.3523, 35.5891, 35.6788, 2.13734
0, 0.00000, 12071.2, 12516.4, 12548.4, 0, 31.1807, 32.3291, 32.4139, 1.93986
0, 0.00000, 12162.3, 12619, 12654.6, 0, 27.9634, 29.0122, 29.0957, 1.73963
0, 0.00000, 12254.3, 12721.2, 12760.9, 0, 24.6963, 25.6367, 25.718, 1.53423
0, 0.00000, 12348.7, 12822.6, 12867.2, 0, 21.3818, 22.2025, 22.2806, 1.32094
0, 0.00000, 12442.6, 12923.9, 12973.3, 0, 18.014, 18.7109, 18.7831, 1.10614
0, 0.00000, 12536, 13025, 13079, 0, 14.5938, 15.1631, 15.2266, 0.890566
0, 0.00000, 12628.8, 13125.7, 13184.3, 0, 11.1229, 11.5607, 11.6127, 0.674453
0, 0.00000, 12720.8, 13226.1, 13289.1, 0, 7.60641, 7.9086, 7.94655, 0.458221
0, 0.00000, 12812, 13326.1, 13393.2, 0, 4.06388, 4.22695, 4.24842, 0.243178
0, 0.00000, 12902.3, 13425.4, 13496.6, 0, 0.9098, 0.946693, 0.951747, 0.0540677
0, 0.00000, 12991.5, 13524.1, 13599, 0, 3.4522, 3.59375, 3.6138, 0.203709
0, 0.00000, 13079.5, 13622, 13700.4, 0, 7.13446, 7.43041, 7.47345, 0.417932
0, 0.00000, 13166.2, 13719.1, 13800.6, 0, 10.9028, 11.3606, 11.4286, 0.633895
0, 0.00000, 13251.6, 13815.1, 13899.5, 0, 14.7277, 15.3541, 15.4485, 0.849669
0, 0.00000, 13335.5, 13912.6, 13999, 0, 18.6038, 19.4088, 19.5295, 1.06372
0, 0.00000, 13417.8, 14009, 14097, 0, 22.5255, 23.518, 23.6659, 1.2774
0, 0.00000, 13500.3, 14106.1, 14193.3, 0, 26.4952, 27.684, 27.8556, 1.48924
0, 0.00000, 5124.53, 5361.13, 5106.46, 0, 200.208, 209.458, 199.518, 10.4687
0, 0.00000, 5164.64, 5402.42, 5146.98, 0, 199.573, 208.764, 198.889, 10.4145
0, 0.00000, 5205.38, 5444.34, 5188.08, 0, 198.94, 208.075, 198.277, 10.3896
0, 0.00000, 5246.74, 5486.89, 5229.81, 0, 198.295, 207.374, 197.653, 10.3641
0, 0.00000, 5288.71, 5530.06, 5272.18, 0, 197.638, 206.66, 197.018, 10.338
0, 0.00000, 5331.27, 5573.83, 5315.15, 0, 196.969, 205.933, 196.372, 10.3115
0, 0.00000, 5374.52, 5618.31, 5358.84, 0, 196.287, 205.192, 195.712, 10.2843
0, 0.00000, 5418.41, 5663.43, 5403.19, 0, 195.591, 204.438, 195.04, 10.2565
0, 0.00000, 5462.96, 5709.23, 5448.23, 0, 194.882, 203.67, 194.355, 10.2282
0, 0.00000, 5508.19, 5755.71, 5493.97, 0, 194.16, 202.887, 193.657, 10.1992
0, 0.00000, 5554.06, 5802.85, 5540.39, 0, 193.424, 202.09, 192.945, 10.1696
0, 0.00000, 5600.7, 5850.77, 5587.61, 0, 192.672, 201.277, 192.219, 10.1393
0, 0.00000, 5648.07, 5899.43, 5635.58, 0, 191.905, 200.448, 191.478, 10.1083
0, 0.00000, 5696.14, 5948.81, 5684.29, 0, 191.123, 199.603, 190.723, 10.0767
0, 0.00000, 5744.97, 5998.96, 5733.79, 0, 190.325, 198.742, 189.953, 10.0443
0, 0.00000, 5794.56, 6049.89, 5784.09, 0, 189.511, 197.863, 189.167, 10.0112
0, 0.00000, 5844.94, 6101.61, 5835.21, 0, 188.68, 196.968, 188.364, 9.97728
0, 0.00000, 5896.13, 6154.16, 5887.2, 0, 187.832, 196.054, 187.545, 9.94258
0, 0.00000, 5948.16, 6207.56, 5940.05, 0, 186.966, 195.121, 186.709, 9.90704
0, 0.00000, 6000.97, 6261.77, 5993.74, 0, 186.082, 194.171, 185.855, 9.87069
0, 0.00000, 6054.65, 6316.85, 6048.34, 0, 185.179, 193.2, 184.984, 9.83345
0, 0.00000, 6109.08, 6372.7, 6103.73, 0, 184.259, 192.212, 184.095, 9.79538
0, 0.00000, 6164.8, 6429.86, 6160.47, 0, 183.312, 191.195, 183.181, 9.75613
0, 0.00000, 6235.74, 8314.11, 6075.51, 0, 182.824, 162.694, 178.045, 24.6887
0, 0.00000, 6291.23, 8374.05, 6132.52, 0, 181.729, 161.945, 177.151, 25.2193
0, 0.00000, 6347.79, 8434.12, 6190.55, 0, 180.676, 160.716, 176.206, 25.2786
0, 0.00000, 6405.32, 8494.92, 6249.7, 0, 179.597, 159.463, 175.24, 25.3354
0, 0.00000, 6463.68, 8556.22, 6309.93, 0, 178.491, 158.184, 174.253, 25.3896
0, 0.00000, 8282.85, 8361.11, 6372.46, 0, 150.769, 152.204, 173.298, 29.7541
0, 0.00000, 8342.54, 8422.25, 6433.1, 0, 149.494, 150.918, 172.183, 29.7177
0, 0.00000, 8173.09, 8480.56, 8240.22, 0, 144.183, 149.602, 145.148, 8.10617
0, 0.00000, 8232.06, 8540.02, 8302.79, 0, 142.845, 148.188, 144.07, 8.10293
0, 0.00000, 8291.86, 8601.1, 8365.96, 0, 141.522, 146.799, 142.784, 8.04467
0, 0.00000, 8352.12, 8662.66, 8429.71, 0, 140.18, 145.391, 141.48, 7.9859
0, 0.00000, 8413.06, 8724.92, 8494.26, 0, 138.814, 143.958, 140.151, 7.92572
0, 0.00000, 8474.58, 8787.79, 8559.5, 0, 137.425, 142.504, 138.8, 7.86419
0, 0.00000, 8536.85, 8851.44, 8625.63, 0, 136.01, 141.022, 137.423, 7.80109
0, 0.00000, 8599.77, 8915.76, 8692.54, 0, 134.571, 139.515, 136.021, 7.73651
0, 0.00000, 8663.47, 8980.9, 8760.38, 0, 133.104, 137.98, 134.59, 7.67024
0, 0.00000, 8727.59, 9046.47, 8828.75, 0, 131.616, 136.425, 133.14, 7.60265
0, 0.00000, 8792.74, 9113.13, 8898.33, 0, 130.094, 134.834, 131.654, 7.53301
0, 0.00000, 8858.3, 9180.22, 8968.45, 0, 128.551, 133.222, 130.147, 7.46198
0, 0.00000, 8924.61, 9248.09, 9039.48, 0, 126.979, 131.58, 128.611, 7.38912
0, 0.00000, 8991.52, 9316.6, 9111.27, 0, 125.38, 129.913, 127.048, 7.31456
0, 0.00000, 9059.32, 9386.04, 9184.13, 0, 123.748, 128.21, 125.451, 7.23793
0, 0.00000, 9127.62, 9456.02, 9257.64, 0, 122.091, 126.483, 123.828, 7.1596
0, 0.00000, 9196.67, 9526.8, 9332.09, 0, 120.403, 124.724, 122.174, 7.07924
0, 0.00000, 9266.29, 9598.18, 9407.28, 0, 118.686, 122.937, 120.491, 6.99701
0, 0.00000, 9336.67, 9670.38, 9483.44, 0, 116.937, 121.116, 118.774, 6.91261
0, 0.00000, 9407.8, 9743.38, 9560.54, 0, 115.154, 119.261, 117.022, 6.826
0, 0.00000, 9479.63, 9817.13, 9638.54, 0, 113.339, 117.373, 115.237, 6.73717
0, 0.00000, 9551.93, 9891.4, 9717.2, 0, 111.495, 115.457, 113.423, 6.64634
0, 0.00000, 9625.15, 9966.65, 9797.01, 0, 109.612, 113.501, 111.568, 6.55289
0, 0.00000, 9698.83, 10042.4, 9877.5, 0, 107.7, 111.515, 109.683, 6.4573
0, 0.00000, 9773.19, 10118.9, 9958.89, 0, 105.753, 109.493, 107.761, 6.35924
0, 0.00000, 9848.24, 10196.2, 10041.2, 0, 103.769, 107.435, 105.801, 6.25861
0, 0.00000, 9924.07, 10274.3, 10124.6, 0, 101.745, 105.336, 103.8, 6.1552
0, 0.00000, 10000.3, 10352.9, 10208.6, 0, 99.6904, 103.205, 101.766, 6.04939
0, 0.00000, 10077.4, 10432.6, 10293.6, 0, 97.5949, 101.035, 99.688, 5.93941
0, 0.00000, 10154.9, 10513, 10379.3, 0, 95.4651, 98.831, 97.5737, 5.82621
0, 0.00000, 10233.2, 10594.2, 10466, 0, 93.2946, 96.5857, 95.4166, 5.71036
0, 0.00000, 10311.9, 10676, 10553.5, 0, 91.0854, 94.301, 93.2191, 5.59247
0, 0.00000, 10391.3, 10758.6, 10642, 0, 88.8348, 91.9741, 90.9777, 5.47151
0, 0.00000, 10471.3, 10841.7, 10731.3, 0, 86.5449, 89.607, 88.6943, 5.34748
0, 0.00000, 10551.7, 10925.6, 10821.4, 0, 84.2139, 87.1977, 86.3667, 5.22021
0, 0.00000, 10632.7, 11010.1, 10912.4, 0, 81.8398, 84.7442, 83.9928, 5.08956
0, 0.00000, 10714.2, 11095.1, 11004.2, 0, 79.4253, 82.2493, 81.5752, 4.95561
0, 0.00000, 10796.1, 11180.7, 11096.7, 0, 76.969, 79.7113, 79.112, 4.81792
0, 0.00000, 10878.6, 11267.1, 11189.9, 0, 74.4683, 77.1278, 76.5999, 4.67582
0, 0.00000, 10961.5, 11354, 11284, 0, 71.9237, 74.4992, 74.0399, 4.53012
0, 0.00000, 11045.6, 11441.2, 11378.8, 0, 69.3396, 71.8231, 71.4315, 4.37622
0, 0.00000, 11131.6, 11528.5, 11474.4, 0, 66.7185, 69.0992, 68.7748, 4.21175
0, 0.00000, 11218.6, 11616, 11570.7, 0, 64.0555, 66.3271, 66.0682, 4.03971
0, 0.00000, 11306, 11704, 11667.7, 0, 61.3457, 63.5073, 63.3103, 3.8641
0, 0.00000, 11393.8, 11792.3, 11765.3, 0, 58.5884, 60.6395, 60.5006, 3.68559
0, 0.00000, 11481.9, 11880.8, 11863.4, 0, 55.7845, 57.7243, 57.6395, 3.50401
0, 0.00000, 11570.4, 11969.7, 11962, 0, 52.9315, 54.7598, 54.7247, 3.3196
0, 0.00000, 11659.1, 12058.8, 12061.2, 0, 50.0297, 51.7463, 51.7564, 3.13246
0, 0.00000, 11748, 12148.1, 12160.7, 0, 47.0783, 48.6831, 48.7335, 2.94257
0, 0.00000, 11836.6, 12238.7, 12262.2, 0, 44.0774, 45.5774, 45.6632, 2.7569
0, 0.00000, 11926.2, 12340.4, 12366.5, 0, 41.0296, 42.4531, 42.5451, 2.56641
0, 0.00000, 12017.5, 12445.7, 12472.5, 0, 37.9367, 39.2863, 39.374, 2.37315
0, 0.00000, 12111, 12551.1, 12581, 0, 34.8003, 36.0634, 36.1514, 2.1768
0, 0.00000, 12205.4, 12656.8, 12690.6, 0, 31.6144, 32.7824, 32.8718, 1.97765
0, 0.00000, 12302.7, 12761.7, 12800.5, 0, 28.3841, 29.4432, 29.534, 1.76876
0, 0.00000, 12400.6, 12866.4, 12910.5, 0, 25.1045, 26.0479, 26.1381, 1.55547
0, 0.00000, 12498.2, 12971.2, 13020.4, 0, 21.7727, 22.5968, 22.6835, 1.341
0, 0.00000, 12595.3, 13075.8, 13130.2, 0, 18.3948, 19.0966, 19.1767, 1.12606
0, 0.00000, 12692, 13180.2, 13239.7, 0, 14.9752, 15.5514, 15.6221, 0.91103
0, 0.00000, 12788.1, 13284.5, 13348.8, 0, 11.528, 11.9756, 12.034, 0.696852
0, 0.00000, 12883.4, 13388.3, 13457.4, 0, 8.09099, 8.40814, 8.45184, 0.485898
0, 0.00000, 12977.9, 13491.7, 13565.4, 0, 4.81193, 5.00247, 5.02997, 0.28704
0, 0.00000, 13071.5, 13594.6, 13672.6, 0, 2.67346, 2.78046, 2.79653, 0.158378
0, 0.00000, 13164, 13696.8, 13779, 0, 4.3155, 4.49019, 4.51729, 0.253842
0, 0.00000, 13255.4, 13798.3, 13884.4, 0, 7.66526, 7.97925, 8.02929, 0.447588
0, 0.00000, 13345.5, 13900.8, 13990.1, 0, 11.3443, 11.816, 11.8926, 0.657395
0, 0.00000, 13434.4, 14003.4, 14095.4, 0, 15.1529, 15.7947, 15.8986, 0.870507
0, 0.00000, 13523.9, 14107, 14199.3, 0, 19.0443, 19.8652, 19.9954, 1.08476
0, 0.00000, 13611.8, 14209.4, 14301.4, 0, 23.0007, 24.0104, 24.1661, 1.29857
0, 0.00000, 13699.5, 14310.5, 14403.6, 0, 27.0154, 28.2203, 28.4042, 1.51101
0, 0.00000, 5138.3, 5374.84, 5119.14, 0, 200.776, 210.023, 200.042, 10.4985
0, 0.00000, 5178.82, 5416.52, 5160.05, 0, 200.147, 209.336, 199.42, 10.4447
0, 0.00000, 5219.91, 5458.78, 5201.47, 0, 199.521, 208.655, 198.815, 10.4203
0, 0.00000, 5261.5, 5501.56, 5243.41, 0, 198.886, 207.963, 198.2, 10.3953
0, 0.00000, 5303.98, 5545.23, 5286.26, 0, 198.234, 207.253, 197.57, 10.3697
0, 0.00000, 5346.93, 5589.39, 5329.6, 0, 197.573, 206.534, 196.931, 10.3435
0, 0.00000, 5390.52, 5634.19, 5373.61, 0, 196.899, 205.802, 196.279, 10.3169
0, 0.00000, 5434.75, 5679.64, 5418.27, 0, 196.213, 205.057, 195.616, 10.2896
0, 0.00000, 5479.77, 5725.9, 5463.75, 0, 195.511, 204.295, 194.938, 10.2617
0, 0.00000, 5525.37, 5772.74, 5509.84, 0, 194.798, 203.521, 194.248, 10.2333
0, 0.00000, 5571.72, 5820.35, 5556.71, 0, 194.069, 202.732, 193.544, 10.2042
0, 0.00000, 5618.79, 5868.7, 5604.33, 0, 193.326, 201.927, 192.826, 10.1745
0, 0.00000, 5666.56, 5917.75, 5652.67, 0, 192.569, 201.107, 192.095, 10.1441
0, 0.00000, 5715.19, 5967.67, 5701.91, 0, 191.795, 200.27, 191.347, 10.1129
0, 0.00000, 5764.45, 6018.24, 5751.82, 0, 191.007, 199.419, 190.587, 10.0812
0, 0.00000, 5814.51, 6069.61, 5802.55, 0, 190.203, 198.55, 189.81, 10.0486
0, 0.00000, 5865.51, 6121.94, 5854.26, 0, 189.38, 197.662, 189.015, 10.0153
0, 0.00000, 5917.23, 6175.01, 5906.74, 0, 188.542, 196.758, 188.206, 9.98118
0, 0.00000, 5969.81, 6228.96, 5960.12, 0, 187.685, 195.834, 187.378, 9.94626
0, 0.00000, 6023.23, 6283.75, 6014.38, 0, 186.811, 194.893, 186.534, 9.91052
0, 0.00000, 6077.43, 6339.33, 6069.47, 0, 185.919, 193.933, 185.674, 9.87397
0, 0.00000, 6132.73, 6396.03, 6125.69, 0, 185.005, 192.95, 184.791, 9.83641
0, 0.00000, 6188.72, 6453.44, 6182.67, 0, 184.075, 191.951, 183.893, 9.79805
0, 0.00000, 6261.14, 8348.04, 6096.78, 0, 183.573, 163.853, 178.754, 25.3724
0, 0.00000, 6317.61, 8408.24, 6154.43, 0, 182.536, 162.646, 177.827, 25.4509
0, 0.00000, 6375.02, 8469.25, 6213.24, 0, 181.49, 161.42, 176.89, 25.5129
0, 0.00000, 6433.13, 8530.62, 6272.96, 0, 180.421, 160.173, 175.936, 25.573
0, 0.00000, 8261.81, 8334.17, 6337.9, 0, 152.565, 154.18, 175.091, 30.3297
0, 0.00000, 8321.98, 8395.28, 6397.98, 0, 151.529, 152.859, 174.004, 29.8795
0, 0.00000, 8382.34, 8456.74, 6458.98, 0, 150.253, 151.582, 172.928, 29.9349
0, 0.00000, 8210.48, 8516.18, 8276.38, 0, 144.835, 150.234, 145.999, 8.21661
0, 0.00000, 8270.44, 8577.27, 8339.53, 0, 143.549, 148.874, 144.746, 8.15234
0, 0.00000, 8330.88, 8638.96, 8403.35, 0, 142.235, 147.494, 143.47, 8.09552
0, 0.00000, 8392.1, 8701.45, 8468.06, 0, 140.895, 146.088, 142.168, 8.0373
0, 0.00000, 8453.86, 8764.49, 8533.42, 0, 139.535, 144.662, 140.846, 7.97782
0, 0.00000, 8516.44, 8828.39, 8599.75, 0, 138.148, 143.207, 139.497, 7.91677
0, 0.00000, 8579.61, 8892.9, 8666.78, 0, 136.739, 141.731, 138.125, 7.85435
0, 0.00000, 8643.5, 8958.15, 8734.67, 0, 135.303, 140.228, 136.728, 7.79038
0, 0.00000, 8708.11, 9024.16, 8803.43, 0, 133.842, 138.699, 135.305, 7.72484
0, 0.00000, 8773.42, 9090.9, 8873.03, 0, 132.354, 137.143, 133.854, 7.65768
0, 0.00000, 8839.32, 9158.25, 8943.36, 0, 130.842, 135.562, 132.38, 7.589
0, 0.00000, 8906.09, 9226.51, 9014.73, 0, 129.3, 133.951, 130.875, 7.51844
0, 0.00000, 8973.48, 9295.43, 9086.87, 0, 127.731, 132.313, 129.343, 7.44623
0, 0.00000, 9041.55, 9365.06, 9159.85, 0, 126.135, 130.647, 127.783, 7.37226
0, 0.00000, 9110.34, 9435.45, 9233.72, 0, 124.51, 128.952, 126.194, 7.29644
0, 0.00000, 9179.87, 9506.62, 9308.51, 0, 122.855, 127.227, 124.574, 7.21868
0, 0.00000, 9250.15, 9578.58, 9384.23, 0, 121.168, 125.47, 122.923, 7.13893
0, 0.00000, 9321.06, 9651.22, 9460.78, 0, 119.453, 123.684, 121.242, 7.05725
0, 0.00000, 9392.77, 9724.71, 9538.32, 0, 117.705, 121.864, 119.527, 6.97339
0, 0.00000, 9465.15, 9798.91, 9616.72, 0, 115.926, 120.013, 117.781, 6.88745
0, 0.00000, 9538.21, 9873.84, 9696.01, 0, 114.115, 118.13, 116.001, 6.79935
0, 0.00000, 9612.04, 9949.6, 9776.29, 0, 112.269, 116.211, 114.186, 6.70891
0, 0.00000, 9686.51, 10026.1, 9857.44, 0, 110.391, 114.26, 112.338, 6.61621
0, 0.00000, 9761.68, 10103.3, 9939.49, 0, 108.479, 112.274, 110.453, 6.52113
0, 0.00000, 9837.59, 10181.3, 10022.5, 0, 106.53, 110.252, 108.532, 6.42352
0, 0.00000, 9914.13, 10260, 10106.5, 0, 104.547, 108.194, 106.574, 6.32343
0, 0.00000, 9991.38, 10339.5, 10191.3, 0, 102.527, 106.099, 104.578, 6.22071
0, 0.00000, 10069.4, 10419.9, 10277.2, 0, 100.469, 103.965, 102.541, 6.11492
0, 0.00000, 10148, 10501.2, 10363.8, 0, 98.3751, 101.799, 100.467, 6.00481
0, 0.00000, 10227.3, 10583.3, 10451.4, 0, 96.2421, 99.592, 98.3508, 5.89188
0, 0.00000, 10307.2, 10666.1, 10540, 0, 94.07, 97.3456, 96.1941, 5.77696
